
T0AE8 000:311 SEGGER J-Link V4.96d Log File (0001ms, 0277ms total)
T0AE8 000:311 DLL Compiled: Jan 29 2015 11:45:37 (0001ms, 0277ms total)
T0AE8 000:311 Logging started @ 2016-01-02 16:46 (0001ms, 0277ms total)
T0AE8 000:312 JLINK_SetWarnOutHandler(...) (0000ms, 0277ms total)
T0AE8 000:312 JLINK_OpenEx(...)
Firmware: J-Link ARM V8 compiled Nov 28 2014 13:44:46
Hardware: V8.00
S/N: 799713843
Feature(s): RDI,FlashDL,FlashBP,JFlash,GDBFULL  returns O.K. (0271ms, 0548ms total)
T0AE8 000:583 JLINK_SetErrorOutHandler(...) (0000ms, 0548ms total)
T0AE8 000:583 JLINK_ExecCommand("ProjectFile = "C:\Documents and Settings\Administrator\桌面\STM32F407ZET6ZGT6程序\实验7 触摸屏zet6ZGT6\USER\JLinkSettings.ini"", ...)  returns 0x00 (0001ms, 0549ms total)
T0AE8 000:591 JLINK_ExecCommand("Device = STM32F407ZG", ...)Device "STM32F407ZG" selected.  returns 0x00 (0008ms, 0557ms total)
T0AE8 000:599 JLINK_ExecCommand("DisableConnectionTimeout", ...)  returns 0x01 (0000ms, 0557ms total)
T0AE8 000:599 JLINK_GetHardwareVersion()  returns 0x13880 (0000ms, 0557ms total)
T0AE8 000:599 JLINK_GetDLLVersion()  returns 49604 (0000ms, 0557ms total)
T0AE8 000:599 JLINK_GetFirmwareString(...) (0000ms, 0557ms total)
T0AE8 000:606 JLINK_GetDLLVersion()  returns 49604 (0000ms, 0557ms total)
T0AE8 000:606 JLINK_GetCompileDateTime() (0000ms, 0557ms total)
T0AE8 000:609 JLINK_GetFirmwareString(...) (0000ms, 0557ms total)
T0AE8 000:613 JLINK_GetHardwareVersion()  returns 0x13880 (0000ms, 0557ms total)
T0AE8 000:628 JLINK_TIF_Select(JLINKARM_TIF_SWD)  returns 0x00 (0005ms, 0562ms total)
T0AE8 000:633 JLINK_SetSpeed(500) (0002ms, 0564ms total)
T0AE8 000:635 JLINK_GetId() >0x108 TIF>Found SWD-DP with ID 0x2BA01477 >0x0D TIF> >0x28 TIF> >0x0D TIF> >0x28 TIF> >0x0D TIF> >0x21 TIF> >0x0D TIF> >0x28 TIF> >0x0D TIF> >0x28 TIF> >0x0D TIF> >0x28 TIF> >0x0D TIF> >0x21 TIF> >0x0D TIF> >0x21 TIF> >0x0D TIF> >0x28 TIF> >0x0D TIF> >0x21 TIF> >0x0D TIF> >0x21 TIF> >0x0D TIF> >0x28 TIF> >0x0D TIF> >0x28 TIF> >0x0D TIF> >0x28 TIF> >0x0D TIF> >0x21 TIF> >0x0D TIF> >0x21 TIF> >0x0D TIF> >0x28 TIF> >0x0D TIF> >0x28 TIF> >0x108 TIF>Found SWD-DP with ID 0x2BA01477
 >0x0D TIF> >0x21 TIF> >0x0D TIF> >0x28 TIF> >0x0D TIF> >0x28 TIF> >0x0D TIF> >0x21 TIF> >0x0D TIF> >0x28 TIF> >0x0D TIF> >0x21 TIF> >0x0D TIF> >0x21 TIF> >0x0D TIF> >0x21 TIF> >0x0D TIF> >0x21 TIF> >0x0D TIF> >0x28 TIF> >0x0D TIF> >0x28 TIF> >0x0D TIF> >0x21 TIF> >0x0D TIF> >0x28 TIF> >0x0D TIF> >0x28 TIF> >0x0D TIF> >0x28 TIF> >0x0D TIF> >0x21 TIF> >0x0D TIF> >0x21 TIF> >0x0D TIF> >0x28 TIF> >0x0D TIF> >0x21 TIF> >0x0D TIF> >0x21 TIF>Found Cortex-M4 r0p1, Little endian.
 -- CPU_WriteMem(4 bytes @ 0xE0002000) -- CPU_ReadMem(4 bytes @ 0xE000EDF0) -- CPU_WriteMem(4 bytes @ 0xE000EDF0) -- CPU_ReadMem(4 bytes @ 0xE0002000)FPUnit: 6 code (BP) slots and 2 literal slots -- CPU_ReadMem(4 bytes @ 0xE000EDFC) -- CPU_WriteMem(4 bytes @ 0xE000EDFC) -- CPU_ReadMem(4 bytes @ 0xE0001000) -- CPU_WriteMem(4 bytes @ 0xE0001000) -- CPU_ReadMem(4 bytes @ 0xE000ED88) -- CPU_WriteMem(4 bytes @ 0xE000ED88) -- CPU_ReadMem(4 bytes @ 0xE000ED88) -- CPU_WriteMem(4 bytes @ 0xE000ED88)
 -- CPU_ReadMem(4 bytes @ 0xE00FF010)TPIU fitted. -- CPU_ReadMem(4 bytes @ 0xE00FF014)ETM fitted. -- CPU_ReadMem(4 bytes @ 0xE00FF018) >0x0D TIF> >0x21 TIF>  returns 0x2BA01477 (0130ms, 0694ms total)
T0AE8 000:765 JLINK_GetDLLVersion()  returns 49604 (0000ms, 0694ms total)
T0AE8 000:765 JLINK_CORE_GetFound()  returns 0xE0000FF (0000ms, 0694ms total)
T0AE8 000:765 JLINK_GetDebugInfo(0x100) -- Value=0xE00FF003  returns 0x00 (0000ms, 0694ms total)
T0AE8 000:768 JLINK_ReadMem (0xE00FF000, 0x0020 Bytes, ...) -- CPU is running -- CPU_ReadMem(32 bytes @ 0xE00FF000) - Data: 03 F0 F0 FF 03 20 F0 FF 03 30 F0 FF 03 10 F0 FF ...  returns 0x00 (0003ms, 0697ms total)
T0AE8 000:771 JLINK_ReadMem (0xE000EFF0, 0x0010 Bytes, ...) -- CPU is running -- CPU_ReadMem(16 bytes @ 0xE000EFF0) - Data: 0D 00 00 00 E0 00 00 00 05 00 00 00 B1 00 00 00  returns 0x00 (0002ms, 0699ms total)
T0AE8 000:773 JLINK_ReadMem (0xE000EFD0, 0x0020 Bytes, ...) -- CPU is running -- CPU_ReadMem(32 bytes @ 0xE000EFD0) - Data: 04 00 00 00 00 00 00 00 00 00 00 00 00 00 00 00 ...  returns 0x00 (0003ms, 0702ms total)
T0AE8 000:776 JLINK_ReadMem (0xE0001FF0, 0x0010 Bytes, ...) -- CPU is running -- CPU_ReadMem(16 bytes @ 0xE0001FF0) - Data: 0D 00 00 00 E0 00 00 00 05 00 00 00 B1 00 00 00  returns 0x00 (0002ms, 0704ms total)
T0AE8 000:778 JLINK_ReadMem (0xE0001FD0, 0x0020 Bytes, ...) -- CPU is running -- CPU_ReadMem(32 bytes @ 0xE0001FD0) - Data: 04 00 00 00 00 00 00 00 00 00 00 00 00 00 00 00 ...  returns 0x00 (0002ms, 0706ms total)
T0AE8 000:780 JLINK_ReadMem (0xE0002FF0, 0x0010 Bytes, ...) -- CPU is running -- CPU_ReadMem(16 bytes @ 0xE0002FF0) - Data: 0D 00 00 00 E0 00 00 00 05 00 00 00 B1 00 00 00  returns 0x00 (0002ms, 0708ms total)
T0AE8 000:782 JLINK_ReadMem (0xE0002FD0, 0x0020 Bytes, ...) -- CPU is running -- CPU_ReadMem(32 bytes @ 0xE0002FD0) - Data: 04 00 00 00 00 00 00 00 00 00 00 00 00 00 00 00 ...  returns 0x00 (0003ms, 0711ms total)
T0AE8 000:785 JLINK_ReadMem (0xE0000FF0, 0x0010 Bytes, ...) -- CPU is running -- CPU_ReadMem(16 bytes @ 0xE0000FF0) - Data: 0D 00 00 00 E0 00 00 00 05 00 00 00 B1 00 00 00  returns 0x00 (0002ms, 0713ms total)
T0AE8 000:787 JLINK_ReadMem (0xE0000FD0, 0x0020 Bytes, ...) -- CPU is running -- CPU_ReadMem(32 bytes @ 0xE0000FD0) - Data: 04 00 00 00 00 00 00 00 00 00 00 00 00 00 00 00 ...  returns 0x00 (0003ms, 0716ms total)
T0AE8 000:790 JLINK_ReadMem (0xE0040FF0, 0x0010 Bytes, ...) -- CPU is running -- CPU_ReadMem(16 bytes @ 0xE0040FF0) - Data: 0D 00 00 00 90 00 00 00 05 00 00 00 B1 00 00 00  returns 0x00 (0002ms, 0718ms total)
T0AE8 000:792 JLINK_ReadMem (0xE0040FD0, 0x0020 Bytes, ...) -- CPU is running -- CPU_ReadMem(32 bytes @ 0xE0040FD0) - Data: 04 00 00 00 00 00 00 00 00 00 00 00 00 00 00 00 ...  returns 0x00 (0004ms, 0722ms total)
T0AE8 000:796 JLINK_ReadMem (0xE0041FF0, 0x0010 Bytes, ...) -- CPU is running -- CPU_ReadMem(16 bytes @ 0xE0041FF0) - Data: 0D 00 00 00 90 00 00 00 05 00 00 00 B1 00 00 00  returns 0x00 (0002ms, 0724ms total)
T0AE8 000:798 JLINK_ReadMem (0xE0041FD0, 0x0020 Bytes, ...) -- CPU is running -- CPU_ReadMem(32 bytes @ 0xE0041FD0) - Data: 04 00 00 00 00 00 00 00 00 00 00 00 00 00 00 00 ...  returns 0x00 (0003ms, 0727ms total)
T0AE8 000:801 JLINK_ReadMemU32(0xE000EF40, 0x0001 Items, ...) -- CPU is running -- CPU_ReadMem(4 bytes @ 0xE000EF40) - Data: 21 00 11 10  returns 0x01 (0002ms, 0729ms total)
T0AE8 000:803 JLINK_ReadMemU32(0xE000EF44, 0x0001 Items, ...) -- CPU is running -- CPU_ReadMem(4 bytes @ 0xE000EF44) - Data: 11 00 00 11  returns 0x01 (0002ms, 0731ms total)
T0AE8 000:805 JLINK_ReadMemU32(0xE000ED00, 0x0001 Items, ...) -- CPU is running -- CPU_ReadMem(4 bytes @ 0xE000ED00) - Data: 41 C2 0F 41  returns 0x01 (0002ms, 0733ms total)
T0AE8 000:807 JLINK_SetResetType(JLINKARM_RESET_TYPE_NORMAL)  returns JLINKARM_RESET_TYPE_NORMAL (0000ms, 0733ms total)
T0AE8 000:807 JLINK_Reset() -- CPU is running -- CPU_WriteMem(4 bytes @ 0xE000EDF0) -- CPU is running -- CPU_WriteMem(4 bytes @ 0xE000EDFC) >0x35 TIF> -- CPU is running -- CPU_WriteMem(4 bytes @ 0xE000ED0C) -- CPU is running -- CPU_ReadMem(4 bytes @ 0xE000EDF0) -- CPU is running -- CPU_ReadMem(4 bytes @ 0xE000EDF0) -- CPU is running -- CPU_WriteMem(4 bytes @ 0xE000EDF0) -- CPU is running -- CPU_WriteMem(4 bytes @ 0xE000EDFC) -- CPU is running -- CPU_ReadMem(4 bytes @ 0xE000EDF0)
 -- CPU_WriteMem(4 bytes @ 0xE0002000) -- CPU_ReadMem(4 bytes @ 0xE000EDFC) -- CPU_ReadMem(4 bytes @ 0xE0001000) (0048ms, 0781ms total)
T0AE8 000:855 JLINK_Halt()  returns 0x00 (0000ms, 0781ms total)
T0AE8 000:855 JLINK_IsHalted()  returns TRUE (0000ms, 0781ms total)
T0AE8 000:855 JLINK_ReadMemU32(0xE000EDF0, 0x0001 Items, ...) -- CPU_ReadMem(4 bytes @ 0xE000EDF0) - Data: 03 00 03 00  returns 0x01 (0002ms, 0783ms total)
T0AE8 000:857 JLINK_WriteU32(0xE000EDF0, 0xA05F0003) -- CPU_WriteMem(4 bytes @ 0xE000EDF0)  returns 0x00 (0001ms, 0784ms total)
T0AE8 000:858 JLINK_WriteU32(0xE000EDFC, 0x01000000) -- CPU_WriteMem(4 bytes @ 0xE000EDFC)  returns 0x00 (0001ms, 0785ms total)
T0AE8 000:865 JLINK_GetHWStatus(...)  returns 0x00 (0002ms, 0787ms total)
T0AE8 000:876 JLINK_GetNumBPUnits(Type = 0xFFFFFF00)  returns 0x06 (0000ms, 0787ms total)
T0AE8 000:876 JLINK_GetNumBPUnits(Type = 0xF0)  returns 0x2000 (0000ms, 0787ms total)
T0AE8 000:876 JLINK_GetNumWPUnits()  returns 0x04 (0000ms, 0787ms total)
T0AE8 000:884 JLINK_GetSpeed()  returns 0x1F4 (0000ms, 0787ms total)
T0AE8 000:888 JLINK_ReadMemU32(0xE000E004, 0x0001 Items, ...) -- CPU_ReadMem(4 bytes @ 0xE000E004) - Data: 02 00 00 00  returns 0x01 (0002ms, 0789ms total)
T0AE8 000:890 JLINK_ReadMemU32(0xE000E004, 0x0001 Items, ...) -- CPU_ReadMem(4 bytes @ 0xE000E004) - Data: 02 00 00 00  returns 0x01 (0002ms, 0791ms total)
T0AE8 000:892 JLINK_WriteMem(0xE0001000, 0x001C Bytes, ...) - Data: 01 00 00 00 00 00 00 00 00 00 00 00 00 00 00 00 ... -- CPU_WriteMem(28 bytes @ 0xE0001000)  returns 0x1C (0003ms, 0794ms total)
T0AE8 000:895 JLINK_ReadMem (0xE0001000, 0x001C Bytes, ...) -- CPU_ReadMem(28 bytes @ 0xE0001000) - Data: 01 00 00 40 00 00 00 00 00 00 00 00 00 00 00 00 ...  returns 0x00 (0003ms, 0797ms total)
T0AE8 000:898 JLINK_Halt()  returns 0x00 (0000ms, 0797ms total)
T0AE8 000:898 JLINK_IsHalted()  returns TRUE (0000ms, 0797ms total)
T0AE8 000:906 JLINK_WriteMem(0x20000000, 0x0180 Bytes, ...) - Data: 00 BE 0A E0 0D 78 2D 06 68 40 08 24 40 00 00 D3 ... -- CPU_WriteMem(384 bytes @ 0x20000000)  returns 0x180 (0012ms, 0809ms total)
T0AE8 000:919 JLINK_WriteReg(R0, 0x08000000)  returns 0x00 (0000ms, 0809ms total)
T0AE8 000:919 JLINK_WriteReg(R1, 0x007A1200)  returns 0x00 (0000ms, 0809ms total)
T0AE8 000:919 JLINK_WriteReg(R2, 0x00000001)  returns 0x00 (0000ms, 0809ms total)
T0AE8 000:919 JLINK_WriteReg(R3, 0x00000000)  returns 0x00 (0000ms, 0809ms total)
T0AE8 000:919 JLINK_WriteReg(R4, 0x00000000)  returns 0x00 (0000ms, 0809ms total)
T0AE8 000:919 JLINK_WriteReg(R5, 0x00000000)  returns 0x00 (0000ms, 0809ms total)
T0AE8 000:919 JLINK_WriteReg(R6, 0x00000000)  returns 0x00 (0000ms, 0809ms total)
T0AE8 000:919 JLINK_WriteReg(R7, 0x00000000)  returns 0x00 (0000ms, 0809ms total)
T0AE8 000:919 JLINK_WriteReg(R8, 0x00000000)  returns 0x00 (0000ms, 0809ms total)
T0AE8 000:919 JLINK_WriteReg(R9, 0x2000017C)  returns 0x00 (0000ms, 0809ms total)
T0AE8 000:919 JLINK_WriteReg(R10, 0x00000000)  returns 0x00 (0000ms, 0809ms total)
T0AE8 000:919 JLINK_WriteReg(R11, 0x00000000)  returns 0x00 (0000ms, 0809ms total)
T0AE8 000:919 JLINK_WriteReg(R12, 0x00000000)  returns 0x00 (0000ms, 0809ms total)
T0AE8 000:919 JLINK_WriteReg(R13 (SP), 0x20001000)  returns 0x00 (0000ms, 0809ms total)
T0AE8 000:919 JLINK_WriteReg(R14, 0x20000001)  returns 0x00 (0000ms, 0809ms total)
T0AE8 000:919 JLINK_WriteReg(R15 (PC), 0x20000054)  returns 0x00 (0000ms, 0809ms total)
T0AE8 000:919 JLINK_WriteReg(XPSR, 0x01000000)  returns 0x00 (0000ms, 0809ms total)
T0AE8 000:919 JLINK_WriteReg(MSP, 0x20001000)  returns 0x00 (0000ms, 0809ms total)
T0AE8 000:919 JLINK_WriteReg(PSP, 0x20001000)  returns 0x00 (0000ms, 0809ms total)
T0AE8 000:919 JLINK_WriteReg(CFBP, 0x00000000)  returns 0x00 (0000ms, 0809ms total)
T0AE8 000:919 JLINK_SetBPEx(Addr = 0x20000000, Type = 0xFFFFFFF2) -- CPU_ReadMem(2 bytes @ 0x20000000)  returns 0x00000001 (0003ms, 0812ms total)
T0AE8 000:922 JLINK_Go() -- CPU_WriteMem(2 bytes @ 0x20000000) -- CPU_WriteMem(4 bytes @ 0xE0002008) -- CPU_WriteMem(4 bytes @ 0xE000200C) -- CPU_WriteMem(4 bytes @ 0xE0002010) -- CPU_WriteMem(4 bytes @ 0xE0002014) -- CPU_WriteMem(4 bytes @ 0xE0002018) -- CPU_WriteMem(4 bytes @ 0xE000201C) -- CPU_WriteMem(4 bytes @ 0xE0001004) (0014ms, 0826ms total)
T0AE8 000:936 JLINK_IsHalted() -- CPU_ReadMem(2 bytes @ 0x20000000)  returns TRUE (0022ms, 0848ms total)
T0AE8 000:958 JLINK_ReadReg(R15 (PC))  returns 0x20000000 (0000ms, 0826ms total)
T0AE8 000:958 JLINK_ClrBPEx(BPHandle = 0x00000001)  returns 0x00 (0000ms, 0826ms total)
T0AE8 000:958 JLINK_ReadReg(R0)  returns 0x00000000 (0000ms, 0826ms total)
T0AE8 000:959 JLINK_WriteReg(R0, 0x08000000)  returns 0x00 (0000ms, 0826ms total)
T0AE8 000:959 JLINK_WriteReg(R1, 0x00004000)  returns 0x00 (0000ms, 0826ms total)
T0AE8 000:959 JLINK_WriteReg(R2, 0x000000FF)  returns 0x00 (0000ms, 0826ms total)
T0AE8 000:959 JLINK_WriteReg(R3, 0x00000000)  returns 0x00 (0000ms, 0826ms total)
T0AE8 000:959 JLINK_WriteReg(R4, 0x00000000)  returns 0x00 (0000ms, 0826ms total)
T0AE8 000:959 JLINK_WriteReg(R5, 0x00000000)  returns 0x00 (0000ms, 0826ms total)
T0AE8 000:959 JLINK_WriteReg(R6, 0x00000000)  returns 0x00 (0000ms, 0826ms total)
T0AE8 000:959 JLINK_WriteReg(R7, 0x00000000)  returns 0x00 (0000ms, 0826ms total)
T0AE8 000:959 JLINK_WriteReg(R8, 0x00000000)  returns 0x00 (0000ms, 0826ms total)
T0AE8 000:959 JLINK_WriteReg(R9, 0x2000017C)  returns 0x00 (0000ms, 0826ms total)
T0AE8 000:959 JLINK_WriteReg(R10, 0x00000000)  returns 0x00 (0000ms, 0826ms total)
T0AE8 000:959 JLINK_WriteReg(R11, 0x00000000)  returns 0x00 (0000ms, 0826ms total)
T0AE8 000:959 JLINK_WriteReg(R12, 0x00000000)  returns 0x00 (0000ms, 0826ms total)
T0AE8 000:959 JLINK_WriteReg(R13 (SP), 0x20001000)  returns 0x00 (0000ms, 0826ms total)
T0AE8 000:959 JLINK_WriteReg(R14, 0x20000001)  returns 0x00 (0000ms, 0826ms total)
T0AE8 000:959 JLINK_WriteReg(R15 (PC), 0x20000020)  returns 0x00 (0000ms, 0826ms total)
T0AE8 000:959 JLINK_WriteReg(XPSR, 0x01000000)  returns 0x00 (0000ms, 0826ms total)
T0AE8 000:959 JLINK_WriteReg(MSP, 0x20001000)  returns 0x00 (0000ms, 0826ms total)
T0AE8 000:959 JLINK_WriteReg(PSP, 0x20001000)  returns 0x00 (0000ms, 0826ms total)
T0AE8 000:959 JLINK_WriteReg(CFBP, 0x00000000)  returns 0x00 (0000ms, 0826ms total)
T0AE8 000:959 JLINK_SetBPEx(Addr = 0x20000000, Type = 0xFFFFFFF2)  returns 0x00000002 (0000ms, 0826ms total)
T0AE8 000:959 JLINK_Go() (0006ms, 0832ms total)
T0AE8 000:965 JLINK_IsHalted() -- CPU_ReadMem(2 bytes @ 0x20000000)  returns TRUE (0022ms, 0854ms total)
T0AE8 000:987 JLINK_ReadReg(R15 (PC))  returns 0x20000000 (0000ms, 0832ms total)
T0AE8 000:987 JLINK_ClrBPEx(BPHandle = 0x00000002)  returns 0x00 (0000ms, 0832ms total)
T0AE8 000:987 JLINK_ReadReg(R0)  returns 0x00000001 (0000ms, 0832ms total)
T0AE8 000:987 JLINK_WriteReg(R0, 0x08000000)  returns 0x00 (0000ms, 0832ms total)
T0AE8 000:987 JLINK_WriteReg(R1, 0x00004000)  returns 0x00 (0000ms, 0832ms total)
T0AE8 000:987 JLINK_WriteReg(R2, 0x000000FF)  returns 0x00 (0000ms, 0832ms total)
T0AE8 000:987 JLINK_WriteReg(R3, 0x00000000)  returns 0x00 (0000ms, 0832ms total)
T0AE8 000:987 JLINK_WriteReg(R4, 0x00000000)  returns 0x00 (0000ms, 0832ms total)
T0AE8 000:987 JLINK_WriteReg(R5, 0x00000000)  returns 0x00 (0000ms, 0832ms total)
T0AE8 000:987 JLINK_WriteReg(R6, 0x00000000)  returns 0x00 (0000ms, 0832ms total)
T0AE8 000:987 JLINK_WriteReg(R7, 0x00000000)  returns 0x00 (0000ms, 0832ms total)
T0AE8 000:987 JLINK_WriteReg(R8, 0x00000000)  returns 0x00 (0000ms, 0832ms total)
T0AE8 000:987 JLINK_WriteReg(R9, 0x2000017C)  returns 0x00 (0000ms, 0832ms total)
T0AE8 000:987 JLINK_WriteReg(R10, 0x00000000)  returns 0x00 (0000ms, 0832ms total)
T0AE8 000:987 JLINK_WriteReg(R11, 0x00000000)  returns 0x00 (0000ms, 0832ms total)
T0AE8 000:987 JLINK_WriteReg(R12, 0x00000000)  returns 0x00 (0000ms, 0832ms total)
T0AE8 000:987 JLINK_WriteReg(R13 (SP), 0x20001000)  returns 0x00 (0000ms, 0832ms total)
T0AE8 000:987 JLINK_WriteReg(R14, 0x20000001)  returns 0x00 (0000ms, 0832ms total)
T0AE8 000:988 JLINK_WriteReg(R15 (PC), 0x200000BC)  returns 0x00 (0000ms, 0833ms total)
T0AE8 000:988 JLINK_WriteReg(XPSR, 0x01000000)  returns 0x00 (0000ms, 0833ms total)
T0AE8 000:988 JLINK_WriteReg(MSP, 0x20001000)  returns 0x00 (0000ms, 0833ms total)
T0AE8 000:988 JLINK_WriteReg(PSP, 0x20001000)  returns 0x00 (0000ms, 0833ms total)
T0AE8 000:988 JLINK_WriteReg(CFBP, 0x00000000)  returns 0x00 (0000ms, 0833ms total)
T0AE8 000:988 JLINK_SetBPEx(Addr = 0x20000000, Type = 0xFFFFFFF2)  returns 0x00000003 (0000ms, 0833ms total)
T0AE8 000:988 JLINK_Go() (0004ms, 0837ms total)
T0AE8 000:992 JLINK_IsHalted()  returns FALSE (0002ms, 0839ms total)
T0AE8 001:058 JLINK_IsHalted()  returns FALSE (0003ms, 0840ms total)
T0AE8 001:068 JLINK_IsHalted()  returns FALSE (0002ms, 0839ms total)
T0AE8 001:071 JLINK_IsHalted()  returns FALSE (0001ms, 0838ms total)
T0AE8 001:074 JLINK_IsHalted()  returns FALSE (0001ms, 0838ms total)
T0AE8 001:081 JLINK_IsHalted()  returns FALSE (0001ms, 0838ms total)
T0AE8 001:084 JLINK_IsHalted()  returns FALSE (0001ms, 0838ms total)
T0AE8 001:087 JLINK_IsHalted()  returns FALSE (0002ms, 0839ms total)
T0AE8 001:091 JLINK_IsHalted()  returns FALSE (0002ms, 0839ms total)
T0AE8 001:095 JLINK_IsHalted()  returns FALSE (0002ms, 0839ms total)
T0AE8 001:102 JLINK_IsHalted()  returns FALSE (0002ms, 0839ms total)
T0AE8 001:106 JLINK_IsHalted()  returns FALSE (0002ms, 0839ms total)
T0AE8 001:110 JLINK_IsHalted()  returns FALSE (0002ms, 0839ms total)
T0AE8 001:117 JLINK_IsHalted()  returns FALSE (0001ms, 0838ms total)
T0AE8 001:120 JLINK_IsHalted()  returns FALSE (0001ms, 0838ms total)
T0AE8 001:123 JLINK_IsHalted()  returns FALSE (0001ms, 0838ms total)
T0AE8 001:126 JLINK_IsHalted()  returns FALSE (0001ms, 0838ms total)
T0AE8 001:135 JLINK_IsHalted()  returns FALSE (0002ms, 0839ms total)
T0AE8 001:139 JLINK_IsHalted()  returns FALSE (0002ms, 0839ms total)
T0AE8 001:147 JLINK_IsHalted()  returns FALSE (0002ms, 0839ms total)
T0AE8 001:151 JLINK_IsHalted()  returns FALSE (0002ms, 0839ms total)
T0AE8 001:154 JLINK_IsHalted()  returns FALSE (0001ms, 0838ms total)
T0AE8 001:157 JLINK_IsHalted()  returns FALSE (0001ms, 0838ms total)
T0AE8 001:167 JLINK_IsHalted()  returns FALSE (0001ms, 0838ms total)
T0AE8 001:170 JLINK_IsHalted()  returns FALSE (0002ms, 0839ms total)
T0AE8 001:179 JLINK_IsHalted()  returns FALSE (0002ms, 0839ms total)
T0AE8 001:183 JLINK_IsHalted()  returns FALSE (0002ms, 0839ms total)
T0AE8 001:187 JLINK_IsHalted()  returns FALSE (0002ms, 0839ms total)
T0AE8 001:194 JLINK_IsHalted()  returns FALSE (0002ms, 0839ms total)
T0AE8 001:197 JLINK_IsHalted()  returns FALSE (0001ms, 0838ms total)
T0AE8 001:200 JLINK_IsHalted()  returns FALSE (0001ms, 0838ms total)
T0AE8 001:207 JLINK_IsHalted()  returns FALSE (0001ms, 0838ms total)
T0AE8 001:210 JLINK_IsHalted()  returns FALSE (0001ms, 0838ms total)
T0AE8 001:213 JLINK_IsHalted()  returns FALSE (0002ms, 0839ms total)
T0AE8 001:217 JLINK_IsHalted()  returns FALSE (0002ms, 0839ms total)
T0AE8 001:221 JLINK_IsHalted()  returns FALSE (0002ms, 0839ms total)
T0AE8 001:228 JLINK_IsHalted()  returns FALSE (0002ms, 0839ms total)
T0AE8 001:232 JLINK_IsHalted()  returns FALSE (0002ms, 0839ms total)
T0AE8 001:236 JLINK_IsHalted()  returns FALSE (0001ms, 0838ms total)
T0AE8 001:246 JLINK_IsHalted()  returns FALSE (0001ms, 0838ms total)
T0AE8 001:251 JLINK_IsHalted()  returns FALSE (0001ms, 0838ms total)
T0AE8 001:254 JLINK_IsHalted()  returns FALSE (0002ms, 0839ms total)
T0AE8 001:258 JLINK_IsHalted()  returns FALSE (0002ms, 0839ms total)
T0AE8 001:262 JLINK_IsHalted()  returns FALSE (0002ms, 0839ms total)
T0AE8 001:273 JLINK_IsHalted()  returns FALSE (0002ms, 0839ms total)
T0AE8 001:277 JLINK_IsHalted()  returns FALSE (0002ms, 0839ms total)
T0AE8 001:285 JLINK_IsHalted()  returns FALSE (0001ms, 0838ms total)
T0AE8 001:288 JLINK_IsHalted()  returns FALSE (0001ms, 0838ms total)
T0AE8 001:291 JLINK_IsHalted()  returns FALSE (0001ms, 0838ms total)
T0AE8 001:294 JLINK_IsHalted()  returns FALSE (0001ms, 0838ms total)
T0AE8 001:297 JLINK_IsHalted()  returns FALSE (0002ms, 0839ms total)
T0AE8 001:304 JLINK_IsHalted()  returns FALSE (0002ms, 0839ms total)
T0AE8 001:308 JLINK_IsHalted()  returns FALSE (0002ms, 0839ms total)
T0AE8 001:312 JLINK_IsHalted()  returns FALSE (0002ms, 0839ms total)
T0AE8 001:320 JLINK_IsHalted()  returns FALSE (0001ms, 0838ms total)
T0AE8 001:323 JLINK_IsHalted()  returns FALSE (0001ms, 0838ms total)
T0AE8 001:326 JLINK_IsHalted()  returns FALSE (0001ms, 0838ms total)
T0AE8 001:333 JLINK_IsHalted()  returns FALSE (0001ms, 0838ms total)
T0AE8 001:336 JLINK_IsHalted() -- CPU_ReadMem(2 bytes @ 0x20000000)  returns TRUE (0023ms, 0860ms total)
T0AE8 001:359 JLINK_ReadReg(R15 (PC))  returns 0x20000000 (0000ms, 0837ms total)
T0AE8 001:359 JLINK_ClrBPEx(BPHandle = 0x00000003)  returns 0x00 (0000ms, 0837ms total)
T0AE8 001:359 JLINK_ReadReg(R0)  returns 0x00000000 (0000ms, 0837ms total)
T0AE8 001:360 JLINK_WriteReg(R0, 0x08004000)  returns 0x00 (0000ms, 0837ms total)
T0AE8 001:360 JLINK_WriteReg(R1, 0x00004000)  returns 0x00 (0000ms, 0837ms total)
T0AE8 001:360 JLINK_WriteReg(R2, 0x000000FF)  returns 0x00 (0000ms, 0837ms total)
T0AE8 001:360 JLINK_WriteReg(R3, 0x00000000)  returns 0x00 (0000ms, 0837ms total)
T0AE8 001:360 JLINK_WriteReg(R4, 0x00000000)  returns 0x00 (0000ms, 0837ms total)
T0AE8 001:360 JLINK_WriteReg(R5, 0x00000000)  returns 0x00 (0000ms, 0837ms total)
T0AE8 001:360 JLINK_WriteReg(R6, 0x00000000)  returns 0x00 (0000ms, 0837ms total)
T0AE8 001:360 JLINK_WriteReg(R7, 0x00000000)  returns 0x00 (0000ms, 0837ms total)
T0AE8 001:360 JLINK_WriteReg(R8, 0x00000000)  returns 0x00 (0000ms, 0837ms total)
T0AE8 001:360 JLINK_WriteReg(R9, 0x2000017C)  returns 0x00 (0000ms, 0837ms total)
T0AE8 001:360 JLINK_WriteReg(R10, 0x00000000)  returns 0x00 (0000ms, 0837ms total)
T0AE8 001:360 JLINK_WriteReg(R11, 0x00000000)  returns 0x00 (0000ms, 0837ms total)
T0AE8 001:360 JLINK_WriteReg(R12, 0x00000000)  returns 0x00 (0000ms, 0837ms total)
T0AE8 001:360 JLINK_WriteReg(R13 (SP), 0x20001000)  returns 0x00 (0000ms, 0837ms total)
T0AE8 001:360 JLINK_WriteReg(R14, 0x20000001)  returns 0x00 (0000ms, 0837ms total)
T0AE8 001:360 JLINK_WriteReg(R15 (PC), 0x20000020)  returns 0x00 (0000ms, 0837ms total)
T0AE8 001:360 JLINK_WriteReg(XPSR, 0x01000000)  returns 0x00 (0000ms, 0837ms total)
T0AE8 001:360 JLINK_WriteReg(MSP, 0x20001000)  returns 0x00 (0000ms, 0837ms total)
T0AE8 001:360 JLINK_WriteReg(PSP, 0x20001000)  returns 0x00 (0000ms, 0837ms total)
T0AE8 001:360 JLINK_WriteReg(CFBP, 0x00000000)  returns 0x00 (0000ms, 0837ms total)
T0AE8 001:360 JLINK_SetBPEx(Addr = 0x20000000, Type = 0xFFFFFFF2)  returns 0x00000004 (0000ms, 0837ms total)
T0AE8 001:360 JLINK_Go() (0005ms, 0842ms total)
T0AE8 001:365 JLINK_IsHalted() -- CPU_ReadMem(2 bytes @ 0x20000000)  returns TRUE (0024ms, 0866ms total)
T0AE8 001:389 JLINK_ReadReg(R15 (PC))  returns 0x20000000 (0000ms, 0842ms total)
T0AE8 001:389 JLINK_ClrBPEx(BPHandle = 0x00000004)  returns 0x00 (0000ms, 0842ms total)
T0AE8 001:389 JLINK_ReadReg(R0)  returns 0x00000001 (0000ms, 0842ms total)
T0AE8 001:389 JLINK_WriteReg(R0, 0x08004000)  returns 0x00 (0000ms, 0842ms total)
T0AE8 001:389 JLINK_WriteReg(R1, 0x00004000)  returns 0x00 (0000ms, 0842ms total)
T0AE8 001:389 JLINK_WriteReg(R2, 0x000000FF)  returns 0x00 (0000ms, 0842ms total)
T0AE8 001:389 JLINK_WriteReg(R3, 0x00000000)  returns 0x00 (0000ms, 0842ms total)
T0AE8 001:389 JLINK_WriteReg(R4, 0x00000000)  returns 0x00 (0000ms, 0842ms total)
T0AE8 001:389 JLINK_WriteReg(R5, 0x00000000)  returns 0x00 (0000ms, 0842ms total)
T0AE8 001:389 JLINK_WriteReg(R6, 0x00000000)  returns 0x00 (0000ms, 0842ms total)
T0AE8 001:389 JLINK_WriteReg(R7, 0x00000000)  returns 0x00 (0000ms, 0842ms total)
T0AE8 001:389 JLINK_WriteReg(R8, 0x00000000)  returns 0x00 (0000ms, 0842ms total)
T0AE8 001:389 JLINK_WriteReg(R9, 0x2000017C)  returns 0x00 (0000ms, 0842ms total)
T0AE8 001:389 JLINK_WriteReg(R10, 0x00000000)  returns 0x00 (0000ms, 0842ms total)
T0AE8 001:389 JLINK_WriteReg(R11, 0x00000000)  returns 0x00 (0000ms, 0842ms total)
T0AE8 001:389 JLINK_WriteReg(R12, 0x00000000)  returns 0x00 (0000ms, 0842ms total)
T0AE8 001:389 JLINK_WriteReg(R13 (SP), 0x20001000)  returns 0x00 (0000ms, 0842ms total)
T0AE8 001:389 JLINK_WriteReg(R14, 0x20000001)  returns 0x00 (0000ms, 0842ms total)
T0AE8 001:389 JLINK_WriteReg(R15 (PC), 0x200000BC)  returns 0x00 (0000ms, 0842ms total)
T0AE8 001:389 JLINK_WriteReg(XPSR, 0x01000000)  returns 0x00 (0000ms, 0842ms total)
T0AE8 001:389 JLINK_WriteReg(MSP, 0x20001000)  returns 0x00 (0000ms, 0842ms total)
T0AE8 001:389 JLINK_WriteReg(PSP, 0x20001000)  returns 0x00 (0000ms, 0842ms total)
T0AE8 001:389 JLINK_WriteReg(CFBP, 0x00000000)  returns 0x00 (0000ms, 0842ms total)
T0AE8 001:389 JLINK_SetBPEx(Addr = 0x20000000, Type = 0xFFFFFFF2)  returns 0x00000005 (0000ms, 0842ms total)
T0AE8 001:389 JLINK_Go() (0005ms, 0847ms total)
T0AE8 001:394 JLINK_IsHalted()  returns FALSE (0002ms, 0849ms total)
T0AE8 001:419 JLINK_IsHalted()  returns FALSE (0001ms, 0848ms total)
T0AE8 001:422 JLINK_IsHalted()  returns FALSE (0002ms, 0849ms total)
T0AE8 001:426 JLINK_IsHalted()  returns FALSE (0002ms, 0849ms total)
T0AE8 001:433 JLINK_IsHalted()  returns FALSE (0002ms, 0849ms total)
T0AE8 001:437 JLINK_IsHalted()  returns FALSE (0002ms, 0849ms total)
T0AE8 001:444 JLINK_IsHalted()  returns FALSE (0002ms, 0849ms total)
T0AE8 001:447 JLINK_IsHalted()  returns FALSE (0001ms, 0848ms total)
T0AE8 001:450 JLINK_IsHalted()  returns FALSE (0001ms, 0848ms total)
T0AE8 001:453 JLINK_IsHalted()  returns FALSE (0002ms, 0849ms total)
T0AE8 001:463 JLINK_IsHalted()  returns FALSE (0002ms, 0849ms total)
T0AE8 001:467 JLINK_IsHalted()  returns FALSE (0002ms, 0849ms total)
T0AE8 001:472 JLINK_IsHalted()  returns FALSE (0002ms, 0849ms total)
T0AE8 001:476 JLINK_IsHalted()  returns FALSE (0002ms, 0849ms total)
T0AE8 001:480 JLINK_IsHalted()  returns FALSE (0002ms, 0849ms total)
T0AE8 001:484 JLINK_IsHalted()  returns FALSE (0002ms, 0849ms total)
T0AE8 001:487 JLINK_IsHalted()  returns FALSE (0002ms, 0849ms total)
T0AE8 001:507 JLINK_IsHalted()  returns FALSE (0002ms, 0849ms total)
T0AE8 001:511 JLINK_IsHalted()  returns FALSE (0002ms, 0849ms total)
T0AE8 001:515 JLINK_IsHalted()  returns FALSE (0002ms, 0849ms total)
T0AE8 001:524 JLINK_IsHalted()  returns FALSE (0002ms, 0849ms total)
T0AE8 001:528 JLINK_IsHalted()  returns FALSE (0001ms, 0848ms total)
T0AE8 001:535 JLINK_IsHalted()  returns FALSE (0001ms, 0848ms total)
T0AE8 001:538 JLINK_IsHalted()  returns FALSE (0001ms, 0848ms total)
T0AE8 001:541 JLINK_IsHalted()  returns FALSE (0001ms, 0848ms total)
T0AE8 001:544 JLINK_IsHalted()  returns FALSE (0001ms, 0848ms total)
T0AE8 001:547 JLINK_IsHalted()  returns FALSE (0002ms, 0849ms total)
T0AE8 001:551 JLINK_IsHalted()  returns FALSE (0002ms, 0849ms total)
T0AE8 001:558 JLINK_IsHalted()  returns FALSE (0002ms, 0849ms total)
T0AE8 001:562 JLINK_IsHalted()  returns FALSE (0002ms, 0849ms total)
T0AE8 001:571 JLINK_IsHalted()  returns FALSE (0001ms, 0848ms total)
T0AE8 001:574 JLINK_IsHalted()  returns FALSE (0001ms, 0848ms total)
T0AE8 001:577 JLINK_IsHalted()  returns FALSE (0001ms, 0848ms total)
T0AE8 001:582 JLINK_IsHalted()  returns FALSE (0001ms, 0848ms total)
T0AE8 001:585 JLINK_IsHalted()  returns FALSE (0001ms, 0848ms total)
T0AE8 001:588 JLINK_IsHalted()  returns FALSE (0002ms, 0849ms total)
T0AE8 001:592 JLINK_IsHalted()  returns FALSE (0002ms, 0849ms total)
T0AE8 001:602 JLINK_IsHalted()  returns FALSE (0002ms, 0849ms total)
T0AE8 001:606 JLINK_IsHalted()  returns FALSE (0002ms, 0849ms total)
T0AE8 001:610 JLINK_IsHalted()  returns FALSE (0002ms, 0849ms total)
T0AE8 001:618 JLINK_IsHalted()  returns FALSE (0001ms, 0848ms total)
T0AE8 001:621 JLINK_IsHalted()  returns FALSE (0001ms, 0848ms total)
T0AE8 001:624 JLINK_IsHalted()  returns FALSE (0001ms, 0848ms total)
T0AE8 001:631 JLINK_IsHalted()  returns FALSE (0002ms, 0849ms total)
T0AE8 001:635 JLINK_IsHalted()  returns FALSE (0002ms, 0849ms total)
T0AE8 001:639 JLINK_IsHalted()  returns FALSE (0002ms, 0849ms total)
T0AE8 001:646 JLINK_IsHalted()  returns FALSE (0002ms, 0849ms total)
T0AE8 001:650 JLINK_IsHalted()  returns FALSE (0002ms, 0849ms total)
T0AE8 001:654 JLINK_IsHalted()  returns FALSE (0001ms, 0848ms total)
T0AE8 001:661 JLINK_IsHalted()  returns FALSE (0001ms, 0848ms total)
T0AE8 001:664 JLINK_IsHalted()  returns FALSE (0001ms, 0848ms total)
T0AE8 001:667 JLINK_IsHalted()  returns FALSE (0001ms, 0848ms total)
T0AE8 001:670 JLINK_IsHalted()  returns FALSE (0001ms, 0848ms total)
T0AE8 001:673 JLINK_IsHalted()  returns FALSE (0002ms, 0849ms total)
T0AE8 001:683 JLINK_IsHalted()  returns FALSE (0002ms, 0849ms total)
T0AE8 001:687 JLINK_IsHalted()  returns FALSE (0002ms, 0849ms total)
T0AE8 001:693 JLINK_IsHalted()  returns FALSE (0002ms, 0849ms total)
T0AE8 001:696 JLINK_IsHalted()  returns FALSE (0002ms, 0849ms total)
T0AE8 001:700 JLINK_IsHalted()  returns FALSE (0001ms, 0848ms total)
T0AE8 001:703 JLINK_IsHalted()  returns FALSE (0001ms, 0848ms total)
T0AE8 001:713 JLINK_IsHalted()  returns FALSE (0002ms, 0849ms total)
T0AE8 001:717 JLINK_IsHalted()  returns FALSE (0002ms, 0849ms total)
T0AE8 001:726 JLINK_IsHalted() -- CPU_ReadMem(2 bytes @ 0x20000000)  returns TRUE (0022ms, 0869ms total)
T0AE8 001:748 JLINK_ReadReg(R15 (PC))  returns 0x20000000 (0000ms, 0847ms total)
T0AE8 001:748 JLINK_ClrBPEx(BPHandle = 0x00000005)  returns 0x00 (0000ms, 0847ms total)
T0AE8 001:748 JLINK_ReadReg(R0)  returns 0x00000000 (0000ms, 0847ms total)
T0AE8 001:749 JLINK_WriteReg(R0, 0x00000001)  returns 0x00 (0000ms, 0847ms total)
T0AE8 001:749 JLINK_WriteReg(R1, 0x00004000)  returns 0x00 (0000ms, 0847ms total)
T0AE8 001:749 JLINK_WriteReg(R2, 0x000000FF)  returns 0x00 (0000ms, 0847ms total)
T0AE8 001:749 JLINK_WriteReg(R3, 0x00000000)  returns 0x00 (0000ms, 0847ms total)
T0AE8 001:749 JLINK_WriteReg(R4, 0x00000000)  returns 0x00 (0000ms, 0847ms total)
T0AE8 001:749 JLINK_WriteReg(R5, 0x00000000)  returns 0x00 (0000ms, 0847ms total)
T0AE8 001:749 JLINK_WriteReg(R6, 0x00000000)  returns 0x00 (0000ms, 0847ms total)
T0AE8 001:749 JLINK_WriteReg(R7, 0x00000000)  returns 0x00 (0000ms, 0847ms total)
T0AE8 001:749 JLINK_WriteReg(R8, 0x00000000)  returns 0x00 (0000ms, 0847ms total)
T0AE8 001:749 JLINK_WriteReg(R9, 0x2000017C)  returns 0x00 (0000ms, 0847ms total)
T0AE8 001:749 JLINK_WriteReg(R10, 0x00000000)  returns 0x00 (0000ms, 0847ms total)
T0AE8 001:749 JLINK_WriteReg(R11, 0x00000000)  returns 0x00 (0000ms, 0847ms total)
T0AE8 001:749 JLINK_WriteReg(R12, 0x00000000)  returns 0x00 (0000ms, 0847ms total)
T0AE8 001:749 JLINK_WriteReg(R13 (SP), 0x20001000)  returns 0x00 (0000ms, 0847ms total)
T0AE8 001:749 JLINK_WriteReg(R14, 0x20000001)  returns 0x00 (0000ms, 0847ms total)
T0AE8 001:749 JLINK_WriteReg(R15 (PC), 0x20000082)  returns 0x00 (0000ms, 0847ms total)
T0AE8 001:749 JLINK_WriteReg(XPSR, 0x01000000)  returns 0x00 (0000ms, 0847ms total)
T0AE8 001:749 JLINK_WriteReg(MSP, 0x20001000)  returns 0x00 (0000ms, 0847ms total)
T0AE8 001:749 JLINK_WriteReg(PSP, 0x20001000)  returns 0x00 (0000ms, 0847ms total)
T0AE8 001:749 JLINK_WriteReg(CFBP, 0x00000000)  returns 0x00 (0000ms, 0847ms total)
T0AE8 001:749 JLINK_SetBPEx(Addr = 0x20000000, Type = 0xFFFFFFF2)  returns 0x00000006 (0000ms, 0847ms total)
T0AE8 001:749 JLINK_Go() (0006ms, 0853ms total)
T0AE8 001:756 JLINK_IsHalted() -- CPU_ReadMem(2 bytes @ 0x20000000)  returns TRUE (0023ms, 0876ms total)
T0AE8 001:779 JLINK_ReadReg(R15 (PC))  returns 0x20000000 (0000ms, 0853ms total)
T0AE8 001:779 JLINK_ClrBPEx(BPHandle = 0x00000006)  returns 0x00 (0000ms, 0853ms total)
T0AE8 001:779 JLINK_ReadReg(R0)  returns 0x00000000 (0000ms, 0853ms total)
T0AE8 001:847 JLINK_WriteMem(0x20000000, 0x0180 Bytes, ...) - Data: 00 BE 0A E0 0D 78 2D 06 68 40 08 24 40 00 00 D3 ... -- CPU_WriteMem(384 bytes @ 0x20000000)  returns 0x180 (0012ms, 0865ms total)
T0AE8 001:859 JLINK_WriteReg(R0, 0x08000000)  returns 0x00 (0000ms, 0865ms total)
T0AE8 001:859 JLINK_WriteReg(R1, 0x007A1200)  returns 0x00 (0000ms, 0865ms total)
T0AE8 001:859 JLINK_WriteReg(R2, 0x00000002)  returns 0x00 (0000ms, 0865ms total)
T0AE8 001:859 JLINK_WriteReg(R3, 0x00000000)  returns 0x00 (0000ms, 0865ms total)
T0AE8 001:859 JLINK_WriteReg(R4, 0x00000000)  returns 0x00 (0000ms, 0865ms total)
T0AE8 001:859 JLINK_WriteReg(R5, 0x00000000)  returns 0x00 (0000ms, 0865ms total)
T0AE8 001:859 JLINK_WriteReg(R6, 0x00000000)  returns 0x00 (0000ms, 0865ms total)
T0AE8 001:859 JLINK_WriteReg(R7, 0x00000000)  returns 0x00 (0000ms, 0865ms total)
T0AE8 001:859 JLINK_WriteReg(R8, 0x00000000)  returns 0x00 (0000ms, 0865ms total)
T0AE8 001:859 JLINK_WriteReg(R9, 0x2000017C)  returns 0x00 (0000ms, 0865ms total)
T0AE8 001:859 JLINK_WriteReg(R10, 0x00000000)  returns 0x00 (0000ms, 0865ms total)
T0AE8 001:859 JLINK_WriteReg(R11, 0x00000000)  returns 0x00 (0000ms, 0865ms total)
T0AE8 001:859 JLINK_WriteReg(R12, 0x00000000)  returns 0x00 (0000ms, 0865ms total)
T0AE8 001:859 JLINK_WriteReg(R13 (SP), 0x20001000)  returns 0x00 (0000ms, 0865ms total)
T0AE8 001:859 JLINK_WriteReg(R14, 0x20000001)  returns 0x00 (0000ms, 0865ms total)
T0AE8 001:859 JLINK_WriteReg(R15 (PC), 0x20000054)  returns 0x00 (0000ms, 0865ms total)
T0AE8 001:859 JLINK_WriteReg(XPSR, 0x01000000)  returns 0x00 (0000ms, 0865ms total)
T0AE8 001:859 JLINK_WriteReg(MSP, 0x20001000)  returns 0x00 (0000ms, 0865ms total)
T0AE8 001:859 JLINK_WriteReg(PSP, 0x20001000)  returns 0x00 (0000ms, 0865ms total)
T0AE8 001:859 JLINK_WriteReg(CFBP, 0x00000000)  returns 0x00 (0000ms, 0865ms total)
T0AE8 001:859 JLINK_SetBPEx(Addr = 0x20000000, Type = 0xFFFFFFF2) -- CPU_ReadMem(2 bytes @ 0x20000000)  returns 0x00000007 (0003ms, 0868ms total)
T0AE8 001:862 JLINK_Go() -- CPU_WriteMem(2 bytes @ 0x20000000) (0005ms, 0873ms total)
T0AE8 001:867 JLINK_IsHalted() -- CPU_ReadMem(2 bytes @ 0x20000000)  returns TRUE (0024ms, 0897ms total)
T0AE8 001:891 JLINK_ReadReg(R15 (PC))  returns 0x20000000 (0000ms, 0873ms total)
T0AE8 001:891 JLINK_ClrBPEx(BPHandle = 0x00000007)  returns 0x00 (0000ms, 0873ms total)
T0AE8 001:891 JLINK_ReadReg(R0)  returns 0x00000000 (0000ms, 0873ms total)
T0AE8 001:891 JLINK_WriteMem(0x20000180, 0x0400 Bytes, ...) - Data: D8 06 00 20 99 18 00 08 91 03 00 08 93 03 00 08 ... -- CPU_WriteMem(1024 bytes @ 0x20000180)  returns 0x400 (0027ms, 0900ms total)
T0AE8 001:918 JLINK_WriteReg(R0, 0x08000000)  returns 0x00 (0000ms, 0900ms total)
T0AE8 001:918 JLINK_WriteReg(R1, 0x00000400)  returns 0x00 (0000ms, 0900ms total)
T0AE8 001:918 JLINK_WriteReg(R2, 0x20000180)  returns 0x00 (0000ms, 0900ms total)
T0AE8 001:918 JLINK_WriteReg(R3, 0x00000000)  returns 0x00 (0001ms, 0901ms total)
T0AE8 001:919 JLINK_WriteReg(R4, 0x00000000)  returns 0x00 (0000ms, 0901ms total)
T0AE8 001:919 JLINK_WriteReg(R5, 0x00000000)  returns 0x00 (0000ms, 0901ms total)
T0AE8 001:919 JLINK_WriteReg(R6, 0x00000000)  returns 0x00 (0000ms, 0901ms total)
T0AE8 001:919 JLINK_WriteReg(R7, 0x00000000)  returns 0x00 (0000ms, 0901ms total)
T0AE8 001:919 JLINK_WriteReg(R8, 0x00000000)  returns 0x00 (0000ms, 0901ms total)
T0AE8 001:919 JLINK_WriteReg(R9, 0x2000017C)  returns 0x00 (0000ms, 0901ms total)
T0AE8 001:919 JLINK_WriteReg(R10, 0x00000000)  returns 0x00 (0000ms, 0901ms total)
T0AE8 001:919 JLINK_WriteReg(R11, 0x00000000)  returns 0x00 (0000ms, 0901ms total)
T0AE8 001:919 JLINK_WriteReg(R12, 0x00000000)  returns 0x00 (0000ms, 0901ms total)
T0AE8 001:919 JLINK_WriteReg(R13 (SP), 0x20001000)  returns 0x00 (0000ms, 0901ms total)
T0AE8 001:919 JLINK_WriteReg(R14, 0x20000001)  returns 0x00 (0000ms, 0901ms total)
T0AE8 001:919 JLINK_WriteReg(R15 (PC), 0x20000108)  returns 0x00 (0000ms, 0901ms total)
T0AE8 001:919 JLINK_WriteReg(XPSR, 0x01000000)  returns 0x00 (0000ms, 0901ms total)
T0AE8 001:919 JLINK_WriteReg(MSP, 0x20001000)  returns 0x00 (0000ms, 0901ms total)
T0AE8 001:919 JLINK_WriteReg(PSP, 0x20001000)  returns 0x00 (0000ms, 0901ms total)
T0AE8 001:919 JLINK_WriteReg(CFBP, 0x00000000)  returns 0x00 (0000ms, 0901ms total)
T0AE8 001:919 JLINK_SetBPEx(Addr = 0x20000000, Type = 0xFFFFFFF2)  returns 0x00000008 (0000ms, 0901ms total)
T0AE8 001:919 JLINK_Go() (0006ms, 0907ms total)
T0AE8 001:925 JLINK_IsHalted()  returns FALSE (0002ms, 0909ms total)
T0AE8 001:964 JLINK_IsHalted() -- CPU_ReadMem(2 bytes @ 0x20000000)  returns TRUE (0023ms, 0930ms total)
T0AE8 001:987 JLINK_ReadReg(R15 (PC))  returns 0x20000000 (0000ms, 0907ms total)
T0AE8 001:987 JLINK_ClrBPEx(BPHandle = 0x00000008)  returns 0x00 (0000ms, 0907ms total)
T0AE8 001:987 JLINK_ReadReg(R0)  returns 0x00000000 (0000ms, 0907ms total)
T0AE8 001:987 JLINK_WriteMem(0x20000180, 0x0400 Bytes, ...) - Data: 0C B5 00 20 01 90 00 90 76 48 00 68 40 F4 80 30 ... -- CPU_WriteMem(1024 bytes @ 0x20000180)  returns 0x400 (0029ms, 0936ms total)
T0AE8 002:016 JLINK_WriteReg(R0, 0x08000400)  returns 0x00 (0000ms, 0936ms total)
T0AE8 002:016 JLINK_WriteReg(R1, 0x00000400)  returns 0x00 (0000ms, 0936ms total)
T0AE8 002:016 JLINK_WriteReg(R2, 0x20000180)  returns 0x00 (0000ms, 0936ms total)
T0AE8 002:016 JLINK_WriteReg(R3, 0x00000000)  returns 0x00 (0000ms, 0936ms total)
T0AE8 002:016 JLINK_WriteReg(R4, 0x00000000)  returns 0x00 (0000ms, 0936ms total)
T0AE8 002:016 JLINK_WriteReg(R5, 0x00000000)  returns 0x00 (0000ms, 0936ms total)
T0AE8 002:016 JLINK_WriteReg(R6, 0x00000000)  returns 0x00 (0000ms, 0936ms total)
T0AE8 002:016 JLINK_WriteReg(R7, 0x00000000)  returns 0x00 (0000ms, 0936ms total)
T0AE8 002:016 JLINK_WriteReg(R8, 0x00000000)  returns 0x00 (0000ms, 0936ms total)
T0AE8 002:016 JLINK_WriteReg(R9, 0x2000017C)  returns 0x00 (0000ms, 0936ms total)
T0AE8 002:016 JLINK_WriteReg(R10, 0x00000000)  returns 0x00 (0000ms, 0936ms total)
T0AE8 002:016 JLINK_WriteReg(R11, 0x00000000)  returns 0x00 (0000ms, 0936ms total)
T0AE8 002:016 JLINK_WriteReg(R12, 0x00000000)  returns 0x00 (0000ms, 0936ms total)
T0AE8 002:016 JLINK_WriteReg(R13 (SP), 0x20001000)  returns 0x00 (0000ms, 0936ms total)
T0AE8 002:016 JLINK_WriteReg(R14, 0x20000001)  returns 0x00 (0000ms, 0936ms total)
T0AE8 002:016 JLINK_WriteReg(R15 (PC), 0x20000108)  returns 0x00 (0000ms, 0936ms total)
T0AE8 002:016 JLINK_WriteReg(XPSR, 0x01000000)  returns 0x00 (0000ms, 0936ms total)
T0AE8 002:016 JLINK_WriteReg(MSP, 0x20001000)  returns 0x00 (0000ms, 0936ms total)
T0AE8 002:016 JLINK_WriteReg(PSP, 0x20001000)  returns 0x00 (0000ms, 0936ms total)
T0AE8 002:016 JLINK_WriteReg(CFBP, 0x00000000)  returns 0x00 (0000ms, 0936ms total)
T0AE8 002:016 JLINK_SetBPEx(Addr = 0x20000000, Type = 0xFFFFFFF2)  returns 0x00000009 (0000ms, 0936ms total)
T0AE8 002:016 JLINK_Go() (0006ms, 0942ms total)
T0AE8 002:022 JLINK_IsHalted()  returns FALSE (0002ms, 0944ms total)
T0AE8 002:053 JLINK_IsHalted() -- CPU_ReadMem(2 bytes @ 0x20000000)  returns TRUE (0022ms, 0964ms total)
T0AE8 002:075 JLINK_ReadReg(R15 (PC))  returns 0x20000000 (0001ms, 0943ms total)
T0AE8 002:076 JLINK_ClrBPEx(BPHandle = 0x00000009)  returns 0x00 (0000ms, 0943ms total)
T0AE8 002:076 JLINK_ReadReg(R0)  returns 0x00000000 (0000ms, 0943ms total)
T0AE8 002:077 JLINK_WriteMem(0x20000180, 0x0400 Bytes, ...) - Data: 70 47 FD 49 89 1C 08 80 70 47 FB 48 80 1C 00 88 ... -- CPU_WriteMem(1024 bytes @ 0x20000180)  returns 0x400 (0029ms, 0972ms total)
T0AE8 002:106 JLINK_WriteReg(R0, 0x08000800)  returns 0x00 (0000ms, 0972ms total)
T0AE8 002:106 JLINK_WriteReg(R1, 0x00000400)  returns 0x00 (0000ms, 0972ms total)
T0AE8 002:106 JLINK_WriteReg(R2, 0x20000180)  returns 0x00 (0000ms, 0972ms total)
T0AE8 002:106 JLINK_WriteReg(R3, 0x00000000)  returns 0x00 (0000ms, 0972ms total)
T0AE8 002:106 JLINK_WriteReg(R4, 0x00000000)  returns 0x00 (0000ms, 0972ms total)
T0AE8 002:106 JLINK_WriteReg(R5, 0x00000000)  returns 0x00 (0000ms, 0972ms total)
T0AE8 002:106 JLINK_WriteReg(R6, 0x00000000)  returns 0x00 (0000ms, 0972ms total)
T0AE8 002:106 JLINK_WriteReg(R7, 0x00000000)  returns 0x00 (0000ms, 0972ms total)
T0AE8 002:106 JLINK_WriteReg(R8, 0x00000000)  returns 0x00 (0000ms, 0972ms total)
T0AE8 002:106 JLINK_WriteReg(R9, 0x2000017C)  returns 0x00 (0000ms, 0972ms total)
T0AE8 002:106 JLINK_WriteReg(R10, 0x00000000)  returns 0x00 (0000ms, 0972ms total)
T0AE8 002:106 JLINK_WriteReg(R11, 0x00000000)  returns 0x00 (0000ms, 0972ms total)
T0AE8 002:106 JLINK_WriteReg(R12, 0x00000000)  returns 0x00 (0000ms, 0972ms total)
T0AE8 002:106 JLINK_WriteReg(R13 (SP), 0x20001000)  returns 0x00 (0000ms, 0972ms total)
T0AE8 002:106 JLINK_WriteReg(R14, 0x20000001)  returns 0x00 (0000ms, 0972ms total)
T0AE8 002:106 JLINK_WriteReg(R15 (PC), 0x20000108)  returns 0x00 (0000ms, 0972ms total)
T0AE8 002:106 JLINK_WriteReg(XPSR, 0x01000000)  returns 0x00 (0000ms, 0972ms total)
T0AE8 002:106 JLINK_WriteReg(MSP, 0x20001000)  returns 0x00 (0000ms, 0972ms total)
T0AE8 002:106 JLINK_WriteReg(PSP, 0x20001000)  returns 0x00 (0000ms, 0972ms total)
T0AE8 002:106 JLINK_WriteReg(CFBP, 0x00000000)  returns 0x00 (0000ms, 0972ms total)
T0AE8 002:106 JLINK_SetBPEx(Addr = 0x20000000, Type = 0xFFFFFFF2)  returns 0x0000000A (0000ms, 0972ms total)
T0AE8 002:106 JLINK_Go() (0006ms, 0978ms total)
T0AE8 002:112 JLINK_IsHalted()  returns FALSE (0001ms, 0979ms total)
T0AE8 002:132 JLINK_IsHalted() -- CPU_ReadMem(2 bytes @ 0x20000000)  returns TRUE (0022ms, 1000ms total)
T0AE8 002:154 JLINK_ReadReg(R15 (PC))  returns 0x20000000 (0000ms, 0978ms total)
T0AE8 002:154 JLINK_ClrBPEx(BPHandle = 0x0000000A)  returns 0x00 (0000ms, 0978ms total)
T0AE8 002:154 JLINK_ReadReg(R0)  returns 0x00000000 (0000ms, 0978ms total)
T0AE8 002:155 JLINK_WriteMem(0x20000180, 0x0400 Bytes, ...) - Data: 00 0C 02 40 00 10 02 40 00 14 02 40 00 18 02 40 ... -- CPU_WriteMem(1024 bytes @ 0x20000180)  returns 0x400 (0029ms, 1007ms total)
T0AE8 002:184 JLINK_WriteReg(R0, 0x08000C00)  returns 0x00 (0000ms, 1007ms total)
T0AE8 002:184 JLINK_WriteReg(R1, 0x00000400)  returns 0x00 (0000ms, 1007ms total)
T0AE8 002:184 JLINK_WriteReg(R2, 0x20000180)  returns 0x00 (0000ms, 1007ms total)
T0AE8 002:184 JLINK_WriteReg(R3, 0x00000000)  returns 0x00 (0000ms, 1007ms total)
T0AE8 002:184 JLINK_WriteReg(R4, 0x00000000)  returns 0x00 (0000ms, 1007ms total)
T0AE8 002:184 JLINK_WriteReg(R5, 0x00000000)  returns 0x00 (0000ms, 1007ms total)
T0AE8 002:184 JLINK_WriteReg(R6, 0x00000000)  returns 0x00 (0000ms, 1007ms total)
T0AE8 002:184 JLINK_WriteReg(R7, 0x00000000)  returns 0x00 (0000ms, 1007ms total)
T0AE8 002:184 JLINK_WriteReg(R8, 0x00000000)  returns 0x00 (0000ms, 1007ms total)
T0AE8 002:184 JLINK_WriteReg(R9, 0x2000017C)  returns 0x00 (0000ms, 1007ms total)
T0AE8 002:184 JLINK_WriteReg(R10, 0x00000000)  returns 0x00 (0000ms, 1007ms total)
T0AE8 002:184 JLINK_WriteReg(R11, 0x00000000)  returns 0x00 (0000ms, 1007ms total)
T0AE8 002:184 JLINK_WriteReg(R12, 0x00000000)  returns 0x00 (0000ms, 1007ms total)
T0AE8 002:184 JLINK_WriteReg(R13 (SP), 0x20001000)  returns 0x00 (0000ms, 1007ms total)
T0AE8 002:184 JLINK_WriteReg(R14, 0x20000001)  returns 0x00 (0000ms, 1007ms total)
T0AE8 002:184 JLINK_WriteReg(R15 (PC), 0x20000108)  returns 0x00 (0000ms, 1007ms total)
T0AE8 002:184 JLINK_WriteReg(XPSR, 0x01000000)  returns 0x00 (0000ms, 1007ms total)
T0AE8 002:184 JLINK_WriteReg(MSP, 0x20001000)  returns 0x00 (0000ms, 1007ms total)
T0AE8 002:184 JLINK_WriteReg(PSP, 0x20001000)  returns 0x00 (0000ms, 1007ms total)
T0AE8 002:184 JLINK_WriteReg(CFBP, 0x00000000)  returns 0x00 (0000ms, 1007ms total)
T0AE8 002:184 JLINK_SetBPEx(Addr = 0x20000000, Type = 0xFFFFFFF2)  returns 0x0000000B (0000ms, 1007ms total)
T0AE8 002:184 JLINK_Go() (0006ms, 1013ms total)
T0AE8 002:190 JLINK_IsHalted()  returns FALSE (0002ms, 1015ms total)
T0AE8 002:218 JLINK_IsHalted() -- CPU_ReadMem(2 bytes @ 0x20000000)  returns TRUE (0022ms, 1035ms total)
T0AE8 002:240 JLINK_ReadReg(R15 (PC))  returns 0x20000000 (0000ms, 1013ms total)
T0AE8 002:240 JLINK_ClrBPEx(BPHandle = 0x0000000B)  returns 0x00 (0000ms, 1013ms total)
T0AE8 002:240 JLINK_ReadReg(R0)  returns 0x00000000 (0000ms, 1013ms total)
T0AE8 002:241 JLINK_WriteMem(0x20000180, 0x0400 Bytes, ...) - Data: 85 B2 64 1C 20 78 00 28 DF D1 BD E8 FC 81 00 00 ... -- CPU_WriteMem(1024 bytes @ 0x20000180)  returns 0x400 (0029ms, 1042ms total)
T0AE8 002:270 JLINK_WriteReg(R0, 0x08001000)  returns 0x00 (0000ms, 1042ms total)
T0AE8 002:270 JLINK_WriteReg(R1, 0x00000400)  returns 0x00 (0000ms, 1042ms total)
T0AE8 002:270 JLINK_WriteReg(R2, 0x20000180)  returns 0x00 (0000ms, 1042ms total)
T0AE8 002:270 JLINK_WriteReg(R3, 0x00000000)  returns 0x00 (0000ms, 1042ms total)
T0AE8 002:270 JLINK_WriteReg(R4, 0x00000000)  returns 0x00 (0000ms, 1042ms total)
T0AE8 002:270 JLINK_WriteReg(R5, 0x00000000)  returns 0x00 (0000ms, 1042ms total)
T0AE8 002:270 JLINK_WriteReg(R6, 0x00000000)  returns 0x00 (0000ms, 1042ms total)
T0AE8 002:270 JLINK_WriteReg(R7, 0x00000000)  returns 0x00 (0000ms, 1042ms total)
T0AE8 002:270 JLINK_WriteReg(R8, 0x00000000)  returns 0x00 (0000ms, 1042ms total)
T0AE8 002:270 JLINK_WriteReg(R9, 0x2000017C)  returns 0x00 (0000ms, 1042ms total)
T0AE8 002:270 JLINK_WriteReg(R10, 0x00000000)  returns 0x00 (0000ms, 1042ms total)
T0AE8 002:270 JLINK_WriteReg(R11, 0x00000000)  returns 0x00 (0000ms, 1042ms total)
T0AE8 002:270 JLINK_WriteReg(R12, 0x00000000)  returns 0x00 (0000ms, 1042ms total)
T0AE8 002:270 JLINK_WriteReg(R13 (SP), 0x20001000)  returns 0x00 (0000ms, 1042ms total)
T0AE8 002:270 JLINK_WriteReg(R14, 0x20000001)  returns 0x00 (0000ms, 1042ms total)
T0AE8 002:270 JLINK_WriteReg(R15 (PC), 0x20000108)  returns 0x00 (0000ms, 1042ms total)
T0AE8 002:270 JLINK_WriteReg(XPSR, 0x01000000)  returns 0x00 (0000ms, 1042ms total)
T0AE8 002:270 JLINK_WriteReg(MSP, 0x20001000)  returns 0x00 (0000ms, 1042ms total)
T0AE8 002:270 JLINK_WriteReg(PSP, 0x20001000)  returns 0x00 (0000ms, 1042ms total)
T0AE8 002:270 JLINK_WriteReg(CFBP, 0x00000000)  returns 0x00 (0000ms, 1042ms total)
T0AE8 002:270 JLINK_SetBPEx(Addr = 0x20000000, Type = 0xFFFFFFF2)  returns 0x0000000C (0000ms, 1042ms total)
T0AE8 002:270 JLINK_Go() (0006ms, 1048ms total)
T0AE8 002:276 JLINK_IsHalted()  returns FALSE (0002ms, 1050ms total)
T0AE8 002:304 JLINK_IsHalted() -- CPU_ReadMem(2 bytes @ 0x20000000)  returns TRUE (0022ms, 1070ms total)
T0AE8 002:326 JLINK_ReadReg(R15 (PC))  returns 0x20000000 (0000ms, 1048ms total)
T0AE8 002:326 JLINK_ClrBPEx(BPHandle = 0x0000000C)  returns 0x00 (0000ms, 1048ms total)
T0AE8 002:326 JLINK_ReadReg(R0)  returns 0x00000000 (0000ms, 1048ms total)
T0AE8 002:327 JLINK_WriteMem(0x20000180, 0x0400 Bytes, ...) - Data: 14 23 78 22 01 46 00 90 5A 20 FF F7 45 FD 4F F4 ... -- CPU_WriteMem(1024 bytes @ 0x20000180)  returns 0x400 (0029ms, 1077ms total)
T0AE8 002:356 JLINK_WriteReg(R0, 0x08001400)  returns 0x00 (0000ms, 1077ms total)
T0AE8 002:356 JLINK_WriteReg(R1, 0x00000400)  returns 0x00 (0000ms, 1077ms total)
T0AE8 002:356 JLINK_WriteReg(R2, 0x20000180)  returns 0x00 (0000ms, 1077ms total)
T0AE8 002:356 JLINK_WriteReg(R3, 0x00000000)  returns 0x00 (0000ms, 1077ms total)
T0AE8 002:356 JLINK_WriteReg(R4, 0x00000000)  returns 0x00 (0000ms, 1077ms total)
T0AE8 002:356 JLINK_WriteReg(R5, 0x00000000)  returns 0x00 (0000ms, 1077ms total)
T0AE8 002:356 JLINK_WriteReg(R6, 0x00000000)  returns 0x00 (0000ms, 1077ms total)
T0AE8 002:356 JLINK_WriteReg(R7, 0x00000000)  returns 0x00 (0000ms, 1077ms total)
T0AE8 002:356 JLINK_WriteReg(R8, 0x00000000)  returns 0x00 (0000ms, 1077ms total)
T0AE8 002:356 JLINK_WriteReg(R9, 0x2000017C)  returns 0x00 (0000ms, 1077ms total)
T0AE8 002:356 JLINK_WriteReg(R10, 0x00000000)  returns 0x00 (0000ms, 1077ms total)
T0AE8 002:356 JLINK_WriteReg(R11, 0x00000000)  returns 0x00 (0000ms, 1077ms total)
T0AE8 002:356 JLINK_WriteReg(R12, 0x00000000)  returns 0x00 (0000ms, 1077ms total)
T0AE8 002:356 JLINK_WriteReg(R13 (SP), 0x20001000)  returns 0x00 (0000ms, 1077ms total)
T0AE8 002:356 JLINK_WriteReg(R14, 0x20000001)  returns 0x00 (0000ms, 1077ms total)
T0AE8 002:356 JLINK_WriteReg(R15 (PC), 0x20000108)  returns 0x00 (0000ms, 1077ms total)
T0AE8 002:356 JLINK_WriteReg(XPSR, 0x01000000)  returns 0x00 (0000ms, 1077ms total)
T0AE8 002:356 JLINK_WriteReg(MSP, 0x20001000)  returns 0x00 (0000ms, 1077ms total)
T0AE8 002:356 JLINK_WriteReg(PSP, 0x20001000)  returns 0x00 (0000ms, 1077ms total)
T0AE8 002:356 JLINK_WriteReg(CFBP, 0x00000000)  returns 0x00 (0000ms, 1077ms total)
T0AE8 002:356 JLINK_SetBPEx(Addr = 0x20000000, Type = 0xFFFFFFF2)  returns 0x0000000D (0000ms, 1077ms total)
T0AE8 002:356 JLINK_Go() (0006ms, 1083ms total)
T0AE8 002:362 JLINK_IsHalted()  returns FALSE (0001ms, 1084ms total)
T0AE8 002:387 JLINK_IsHalted() -- CPU_ReadMem(2 bytes @ 0x20000000)  returns TRUE (0022ms, 1105ms total)
T0AE8 002:409 JLINK_ReadReg(R15 (PC))  returns 0x20000000 (0000ms, 1083ms total)
T0AE8 002:409 JLINK_ClrBPEx(BPHandle = 0x0000000D)  returns 0x00 (0000ms, 1083ms total)
T0AE8 002:409 JLINK_ReadReg(R0)  returns 0x00000000 (0000ms, 1083ms total)
T0AE8 002:410 JLINK_WriteMem(0x20000180, 0x0400 Bytes, ...) - Data: 8D F8 07 00 69 46 21 48 00 F0 40 FC 01 20 00 90 ... -- CPU_WriteMem(1024 bytes @ 0x20000180)  returns 0x400 (0029ms, 1112ms total)
T0AE8 002:439 JLINK_WriteReg(R0, 0x08001800)  returns 0x00 (0000ms, 1112ms total)
T0AE8 002:439 JLINK_WriteReg(R1, 0x00000400)  returns 0x00 (0000ms, 1112ms total)
T0AE8 002:439 JLINK_WriteReg(R2, 0x20000180)  returns 0x00 (0000ms, 1112ms total)
T0AE8 002:439 JLINK_WriteReg(R3, 0x00000000)  returns 0x00 (0000ms, 1112ms total)
T0AE8 002:439 JLINK_WriteReg(R4, 0x00000000)  returns 0x00 (0000ms, 1112ms total)
T0AE8 002:439 JLINK_WriteReg(R5, 0x00000000)  returns 0x00 (0000ms, 1112ms total)
T0AE8 002:439 JLINK_WriteReg(R6, 0x00000000)  returns 0x00 (0000ms, 1112ms total)
T0AE8 002:439 JLINK_WriteReg(R7, 0x00000000)  returns 0x00 (0000ms, 1112ms total)
T0AE8 002:439 JLINK_WriteReg(R8, 0x00000000)  returns 0x00 (0000ms, 1112ms total)
T0AE8 002:439 JLINK_WriteReg(R9, 0x2000017C)  returns 0x00 (0000ms, 1112ms total)
T0AE8 002:439 JLINK_WriteReg(R10, 0x00000000)  returns 0x00 (0000ms, 1112ms total)
T0AE8 002:439 JLINK_WriteReg(R11, 0x00000000)  returns 0x00 (0000ms, 1112ms total)
T0AE8 002:439 JLINK_WriteReg(R12, 0x00000000)  returns 0x00 (0000ms, 1112ms total)
T0AE8 002:439 JLINK_WriteReg(R13 (SP), 0x20001000)  returns 0x00 (0000ms, 1112ms total)
T0AE8 002:439 JLINK_WriteReg(R14, 0x20000001)  returns 0x00 (0000ms, 1112ms total)
T0AE8 002:439 JLINK_WriteReg(R15 (PC), 0x20000108)  returns 0x00 (0000ms, 1112ms total)
T0AE8 002:439 JLINK_WriteReg(XPSR, 0x01000000)  returns 0x00 (0000ms, 1112ms total)
T0AE8 002:439 JLINK_WriteReg(MSP, 0x20001000)  returns 0x00 (0000ms, 1112ms total)
T0AE8 002:439 JLINK_WriteReg(PSP, 0x20001000)  returns 0x00 (0000ms, 1112ms total)
